1



                                 *********************************************

                                    NUMERICAL ELECTROMAGNETICS CODE (NEC-2D)

                                 *********************************************




                                     - - - - COMMENTS - - - -


                         CYLINDER WITH ATTACHED WIRES                                                




                                 - - - STRUCTURE SPECIFICATION - - -

                                     COORDINATES MUST BE INPUT IN
                                     METERS OR BE SCALED TO METERS
                                     BEFORE STRUCTURE INPUT IS ENDED


  WIRE                                                                               NO. OF    FIRST  LAST     TAG
  NO.        X1         Y1         Z1          X2         Y2         Z2      RADIUS   SEG.     SEG.   SEG.     NO.
     1P  10.00000     .00000    7.33330      .00000     .00000   38.40000
     2P  10.00000     .00000     .00000      .00000     .00000   38.40000
     3P  10.00000     .00000   -7.33330      .00000     .00000   38.40000
      THE STRUCTURE HAS BEEN MOVED, MOVE DATA CARD IS -
        0    1    .00000    .00000  30.00000    .00000    .00000    .00000    .00000
     7P   6.89000     .00000   11.00000    90.00000     .00000   44.88000
     8P   6.89000     .00000  -11.00000   -90.00000     .00000   44.88000
      STRUCTURE ROTATED ABOUT Z-AXIS  6 TIMES.  LABELS INCREMENTED BY    0
    49P    .00000     .00000   11.00000    90.00000     .00000   44.89000
    50P    .00000     .00000  -11.00000   -90.00000     .00000   44.89000
     1     .00000     .00000   11.00000      .00000     .00000   23.00000     .10000      4        1     4       1
     2   10.00000     .00000     .00000    27.60000     .00000     .00000     .20000      5        5     9       2
      STRUCTURE SCALED BY FACTOR    .01000

   TOTAL SEGMENTS USED=    9     NO. SEG. IN A SYMMETRIC CELL=    9     SYMMETRY FLAG=  0
   TOTAL PATCHES USED=   56      NO. PATCHES IN A SYMMETRIC CELL=   56


         - MULTIPLE WIRE JUNCTIONS -
 JUNCTION    SEGMENTS  (- FOR END 1, + FOR END 2)
  NONE




                                 - - - - SEGMENTATION DATA - - - -

                                        COORDINATES IN METERS

                         I+ AND I- INDICATE THE SEGMENTS BEFORE AND AFTER I


  SEG.   COORDINATES OF SEG. CENTER     SEG.     ORIENTATION ANGLES    WIRE    CONNECTION DATA   TAG
  NO.       X         Y         Z       LENGTH     ALPHA     BETA      RADIUS    I-   I    I+    NO.
     1    .00000    .00000    .12500    .03000   90.00000    .00000    .00100 10052    1    2      1
     2    .00000    .00000    .15500    .03000   90.00000    .00000    .00100     1    2    3      1
     3    .00000    .00000    .18500    .03000   90.00000    .00000    .00100     2    3    4      1
     4    .00000    .00000    .21500    .03000   90.00000    .00000    .00100     3    4    0      1
     5    .11760    .00000    .00000    .03520     .00000    .00000    .00200 10002    5    6      2
     6    .15280    .00000    .00000    .03520     .00000    .00000    .00200     5    6    7      2
     7    .18800    .00000    .00000    .03520     .00000    .00000    .00200     6    7    8      2
     8    .22320    .00000    .00000    .03520     .00000    .00000    .00200     7    8    9      2
     9    .25840    .00000    .00000    .03520     .00000    .00000    .00200     8    9    0      2




                                            - - - SURFACE PATCH DATA - - -

                                                 COORDINATES IN METERS

 PATCH     COORD. OF PATCH CENTER       UNIT NORMAL VECTOR      PATCH            COMPONENTS OF UNIT TANGENT VECTORS
  NO.      X         Y         Z         X       Y       Z       AREA       X1      Y1      Z1       X2      Y2      Z2
    1    .10000    .00000    .07333   1.0000   .0000   .0000    .00384    .0000  1.0000   .0000    .0000   .0000  1.0000
    2    .10000    .01549    .01549   1.0000   .0000   .0000    .00096    .0000  1.0000   .0000    .0000   .0000  1.0000
    3    .10000   -.01549    .01549   1.0000   .0000   .0000    .00096    .0000  1.0000   .0000    .0000   .0000  1.0000
    4    .10000   -.01549   -.01549   1.0000   .0000   .0000    .00096    .0000  1.0000   .0000    .0000   .0000  1.0000
    5    .10000    .01549   -.01549   1.0000   .0000   .0000    .00096    .0000  1.0000   .0000    .0000   .0000  1.0000
    6    .10000    .00000   -.07333   1.0000   .0000   .0000    .00384    .0000  1.0000   .0000    .0000   .0000  1.0000
    7    .08660    .05000    .07333    .8660   .5000   .0000    .00384   -.5000   .8660   .0000    .0000   .0000  1.0000
    8    .08660    .05000    .00000    .8660   .5000   .0000    .00384   -.5000   .8660   .0000    .0000   .0000  1.0000
    9    .08660    .05000   -.07333    .8660   .5000   .0000    .00384   -.5000   .8660   .0000    .0000   .0000  1.0000
   10    .06890    .00000    .11000    .0000   .0000  1.0000    .00449   1.0000   .0000   .0000    .0000  1.0000   .0000
   11    .06890    .00000   -.11000    .0000   .0000 -1.0000    .00449   1.0000   .0000   .0000    .0000 -1.0000   .0000
   12    .05000    .08660    .07333    .5000   .8660   .0000    .00384   -.8660   .5000   .0000    .0000   .0000  1.0000
   13    .05000    .08660    .00000    .5000   .8660   .0000    .00384   -.8660   .5000   .0000    .0000   .0000  1.0000
   14    .05000    .08660   -.07333    .5000   .8660   .0000    .00384   -.8660   .5000   .0000    .0000   .0000  1.0000
   15    .00000    .10000    .07333    .0000  1.0000   .0000    .00384  -1.0000   .0000   .0000    .0000   .0000  1.0000
   16    .00000    .10000    .00000    .0000  1.0000   .0000    .00384  -1.0000   .0000   .0000    .0000   .0000  1.0000
   17    .00000    .10000   -.07333    .0000  1.0000   .0000    .00384  -1.0000   .0000   .0000    .0000   .0000  1.0000
   18    .03445    .05967    .11000    .0000   .0000  1.0000    .00449    .5000   .8660   .0000   -.8660   .5000   .0000
   19    .03445    .05967   -.11000    .0000   .0000 -1.0000    .00449    .5000   .8660   .0000    .8660  -.5000   .0000
   20   -.05000    .08660    .07333   -.5000   .8660   .0000    .00384   -.8660  -.5000   .0000    .0000   .0000  1.0000
   21   -.05000    .08660    .00000   -.5000   .8660   .0000    .00384   -.8660  -.5000   .0000    .0000   .0000  1.0000
   22   -.05000    .08660   -.07333   -.5000   .8660   .0000    .00384   -.8660  -.5000   .0000    .0000   .0000  1.0000
   23   -.08660    .05000    .07333   -.8660   .5000   .0000    .00384   -.5000  -.8660   .0000    .0000   .0000  1.0000
   24   -.08660    .05000    .00000   -.8660   .5000   .0000    .00384   -.5000  -.8660   .0000    .0000   .0000  1.0000
   25   -.08660    .05000   -.07333   -.8660   .5000   .0000    .00384   -.5000  -.8660   .0000    .0000   .0000  1.0000
   26   -.03445    .05967    .11000    .0000   .0000  1.0000    .00449   -.5000   .8660   .0000   -.8660  -.5000   .0000
   27   -.03445    .05967   -.11000    .0000   .0000 -1.0000    .00449   -.5000   .8660   .0000    .8660   .5000   .0000
   28   -.10000    .00000    .07333  -1.0000   .0000   .0000    .00384    .0000 -1.0000   .0000    .0000   .0000  1.0000
   29   -.10000    .00000    .00000  -1.0000   .0000   .0000    .00384    .0000 -1.0000   .0000    .0000   .0000  1.0000
   30   -.10000    .00000   -.07333  -1.0000   .0000   .0000    .00384    .0000 -1.0000   .0000    .0000   .0000  1.0000
   31   -.08660   -.05000    .07333   -.8660  -.5000   .0000    .00384    .5000  -.8660   .0000    .0000   .0000  1.0000
   32   -.08660   -.05000    .00000   -.8660  -.5000   .0000    .00384    .5000  -.8660   .0000    .0000   .0000  1.0000
   33   -.08660   -.05000   -.07333   -.8660  -.5000   .0000    .00384    .5000  -.8660   .0000    .0000   .0000  1.0000
   34   -.06890    .00000    .11000    .0000   .0000  1.0000    .00449  -1.0000   .0000   .0000    .0000 -1.0000   .0000
   35   -.06890    .00000   -.11000    .0000   .0000 -1.0000    .00449  -1.0000   .0000   .0000    .0000  1.0000   .0000
   36   -.05000   -.08660    .07333   -.5000  -.8660   .0000    .00384    .8660  -.5000   .0000    .0000   .0000  1.0000
   37   -.05000   -.08660    .00000   -.5000  -.8660   .0000    .00384    .8660  -.5000   .0000    .0000   .0000  1.0000
   38   -.05000   -.08660   -.07333   -.5000  -.8660   .0000    .00384    .8660  -.5000   .0000    .0000   .0000  1.0000
   39    .00000   -.10000    .07333    .0000 -1.0000   .0000    .00384   1.0000   .0000   .0000    .0000   .0000  1.0000
   40    .00000   -.10000    .00000    .0000 -1.0000   .0000    .00384   1.0000   .0000   .0000    .0000   .0000  1.0000
   41    .00000   -.10000   -.07333    .0000 -1.0000   .0000    .00384   1.0000   .0000   .0000    .0000   .0000  1.0000
   42   -.03445   -.05967    .11000    .0000   .0000  1.0000    .00449   -.5000  -.8660   .0000    .8660  -.5000   .0000
   43   -.03445   -.05967   -.11000    .0000   .0000 -1.0000    .00449   -.5000  -.8660   .0000   -.8660   .5000   .0000
   44    .05000   -.08660    .07333    .5000  -.8660   .0000    .00384    .8660   .5000   .0000    .0000   .0000  1.0000
   45    .05000   -.08660    .00000    .5000  -.8660   .0000    .00384    .8660   .5000   .0000    .0000   .0000  1.0000
   46    .05000   -.08660   -.07333    .5000  -.8660   .0000    .00384    .8660   .5000   .0000    .0000   .0000  1.0000
   47    .08660   -.05000    .07333    .8660  -.5000   .0000    .00384    .5000   .8660   .0000    .0000   .0000  1.0000
   48    .08660   -.05000    .00000    .8660  -.5000   .0000    .00384    .5000   .8660   .0000    .0000   .0000  1.0000
   49    .08660   -.05000   -.07333    .8660  -.5000   .0000    .00384    .5000   .8660   .0000    .0000   .0000  1.0000
   50    .03445   -.05967    .11000    .0000   .0000  1.0000    .00449    .5000  -.8660   .0000    .8660   .5000   .0000
   51    .03445   -.05967   -.11000    .0000   .0000 -1.0000    .00449    .5000  -.8660   .0000   -.8660  -.5000   .0000
   52    .01675    .01675    .11000    .0000   .0000  1.0000    .00112   1.0000   .0000   .0000    .0000  1.0000   .0000
   53   -.01675    .01675    .11000    .0000   .0000  1.0000    .00112   1.0000   .0000   .0000    .0000  1.0000   .0000
   54   -.01675   -.01675    .11000    .0000   .0000  1.0000    .00112   1.0000   .0000   .0000    .0000  1.0000   .0000
   55    .01675   -.01675    .11000    .0000   .0000  1.0000    .00112   1.0000   .0000   .0000    .0000  1.0000   .0000
   56    .00000    .00000   -.11000    .0000   .0000 -1.0000    .00449   1.0000   .0000   .0000    .0000 -1.0000   .0000






 ***** DATA CARD NO.  1   FR   0     1     0     0  4.65840E+02  0.00000E+00  0.00000E+00  0.00000E+00  0.00000E+00  0.00000E+00
 ***** DATA CARD NO.  2   CP   1     1     2     1  0.00000E+00  0.00000E+00  0.00000E+00  0.00000E+00  0.00000E+00  0.00000E+00
 ***** DATA CARD NO.  3   EX   0     1     1     1  0.00000E+00  0.00000E+00  0.00000E+00  0.00000E+00  0.00000E+00  0.00000E+00
 ***** DATA CARD NO.  4   RP   0    73     1  1000  0.00000E+00  0.00000E+00  5.00000E+00  0.00000E+00  0.00000E+00  0.00000E+00




                                 - - - - - - FREQUENCY - - - - - -

                                    FREQUENCY= 4.6584E+02 MHZ
                                    WAVELENGTH= 6.4357E-01 METERS




                    APPROXIMATE INTEGRATION EMPLOYED FOR SEGMENTS MORE THAN   1.000 WAVELENGTHS APART



                               - - - STRUCTURE IMPEDANCE LOADING - - -

                                   THIS STRUCTURE IS NOT LOADED



                                  - - - ANTENNA ENVIRONMENT - - -

                                            FREE SPACE



                                - - - MATRIX TIMING - - -

                        FILL=     .000 SEC.,  FACTOR=     .000 SEC.



                                          - - - ANTENNA INPUT PARAMETERS - - -

   TAG   SEG.    VOLTAGE (VOLTS)         CURRENT (AMPS)         IMPEDANCE (OHMS)        ADMITTANCE (MHOS)      POWER
   NO.   NO.    REAL        IMAG.       REAL        IMAG.       REAL        IMAG.       REAL        IMAG.     (WATTS)
     1     1 1.00000E+00 0.00000E+00 3.49291E-05 1.82607E-03 1.04711E+01-5.47423E+02 3.49291E-05 1.82607E-03 1.74645E-05



                             - - - CURRENTS AND LOCATION - - -

                                 DISTANCES IN WAVELENGTHS


  SEG.  TAG    COORD. OF SEG. CENTER     SEG.            - - - CURRENT (AMPS) - - -
  NO.   NO.     X        Y        Z      LENGTH     REAL        IMAG.       MAG.        PHASE
     1    1    .0000    .0000    .1942   .04662   3.4929E-05  1.8261E-03  1.8264E-03   88.904
     2    1    .0000    .0000    .2408   .04662   4.0267E-05  1.3813E-03  1.3819E-03   88.330
     3    1    .0000    .0000    .2875   .04662   3.5451E-05  9.0075E-04  9.0145E-04   87.746
     4    1    .0000    .0000    .3341   .04662   1.7005E-05  3.5363E-04  3.5404E-04   87.247
     5    2    .1827    .0000    .0000   .05470  -1.9313E-05 -3.7135E-05  4.1857E-05 -117.478
     6    2    .2374    .0000    .0000   .05470  -2.5593E-05 -4.5725E-05  5.2400E-05 -119.237
     7    2    .2921    .0000    .0000   .05470  -2.7276E-05 -4.5096E-05  5.2703E-05 -121.167
     8    2    .3468    .0000    .0000   .05470  -2.2509E-05 -3.4502E-05  4.1195E-05 -123.121
     9    2    .4015    .0000    .0000   .05470  -1.0633E-05 -1.5161E-05  1.8518E-05 -125.043




                                         - - - - SURFACE PATCH CURRENTS - - - -

                                                  DISTANCE IN WAVELENGTHS
                                                  CURRENT IN AMPS/METER

                            - - SURFACE COMPONENTS - -                   - - - RECTANGULAR COMPONENTS - - -
      PATCH CENTER      TANGENT VECTOR 1   TANGENT VECTOR 2           X                   Y                   Z
     X      Y      Z     MAG.       PHASE   MAG.       PHASE    REAL      IMAG.     REAL      IMAG.     REAL      IMAG. 
    1
    .155   .000   .114 0.0000E+00     .00 5.0426E-08  176.79  0.00E+00  0.00E+00  0.00E+00  0.00E+00 -5.03E-08  2.83E-09
    2
    .155   .024   .024 4.0929E-10  148.98 4.9079E-08  177.45  0.00E+00  0.00E+00 -3.51E-10  2.11E-10 -4.90E-08  2.18E-09
    3
    .155  -.024   .024 4.0929E-10  -31.02 4.9079E-08  177.45  0.00E+00  0.00E+00  3.51E-10 -2.11E-10 -4.90E-08  2.18E-09
    4
    .155  -.024  -.024 4.0929E-10  -31.02 4.8359E-08  177.78  0.00E+00  0.00E+00  3.51E-10 -2.11E-10 -4.83E-08  1.87E-09
    5
    .155   .024  -.024 4.0929E-10  148.98 4.8359E-08  177.78  0.00E+00  0.00E+00 -3.51E-10  2.11E-10 -4.83E-08  1.87E-09
    6
    .155   .000  -.114 0.0000E+00     .00 4.7019E-08  178.37  0.00E+00  0.00E+00  0.00E+00  0.00E+00 -4.70E-08  1.34E-09
    7
    .135   .078   .114 1.3209E-09  148.84 5.0196E-08  176.92  5.65E-10 -3.42E-10 -9.79E-10  5.92E-10 -5.01E-08  2.69E-09
    8
    .135   .078   .000 1.3209E-09  148.92 4.8719E-08  177.62  5.66E-10 -3.41E-10 -9.80E-10  5.91E-10 -4.87E-08  2.02E-09
    9
    .135   .078  -.114 1.3209E-09  148.84 4.7246E-08  178.21  5.65E-10 -3.42E-10 -9.79E-10  5.92E-10 -4.72E-08  1.47E-09
   10
    .107   .000   .171 3.6134E-08   -4.27 0.0000E+00     .00  3.60E-08 -2.69E-09  0.00E+00  0.00E+00  0.00E+00  0.00E+00
   11
    .107   .000  -.171 3.1037E-08  179.62 0.0000E+00     .00 -3.10E-08  2.05E-10  0.00E+00  0.00E+00  0.00E+00  0.00E+00
   12
    .078   .135   .114 2.2878E-09  148.67 4.9570E-08  177.31  1.69E-09 -1.03E-09 -9.77E-10  5.95E-10 -4.95E-08  2.33E-09
   13
    .078   .135   .000 2.2878E-09  148.74 4.8719E-08  177.62  1.69E-09 -1.03E-09 -9.78E-10  5.94E-10 -4.87E-08  2.02E-09
   14
    .078   .135  -.114 2.2878E-09  148.67 4.7867E-08  177.80  1.69E-09 -1.03E-09 -9.77E-10  5.95E-10 -4.78E-08  1.84E-09
   15
    .000   .155   .114 2.6415E-09  148.43 4.8722E-08  177.85  2.25E-09 -1.38E-09  3.12E-19 -1.91E-19 -4.87E-08  1.83E-09
   16
    .000   .155   .000 2.6415E-09  148.50 4.8719E-08  177.62  2.25E-09 -1.38E-09  3.12E-19 -1.91E-19 -4.87E-08  2.02E-09
   17
    .000   .155  -.114 2.6415E-09  148.43 4.8715E-08  177.25  2.25E-09 -1.38E-09  3.12E-19 -1.91E-19 -4.87E-08  2.34E-09
   18
    .054   .093   .171 3.4843E-08   -3.19 2.5165E-09  148.57  1.93E-08 -2.11E-09  2.91E-08 -1.02E-09  0.00E+00  0.00E+00
   19
    .054   .093  -.171 3.2294E-08  178.30 2.5165E-09  -31.43 -1.43E-08 -6.58E-10 -2.90E-08  1.48E-09  0.00E+00  0.00E+00
   20
   -.078   .135   .114 2.2874E-09  148.19 4.7883E-08  178.43  1.68E-09 -1.04E-09  9.72E-10 -6.03E-10 -4.79E-08  1.31E-09
   21
   -.078   .135   .000 2.2874E-09  148.26 4.8719E-08  177.62  1.68E-09 -1.04E-09  9.73E-10 -6.02E-10 -4.87E-08  2.02E-09
   22
   -.078   .135  -.114 2.2874E-09  148.19 4.9564E-08  176.70  1.68E-09 -1.04E-09  9.72E-10 -6.03E-10 -4.95E-08  2.85E-09
   23
   -.135   .078   .114 1.3205E-09  148.01 4.7274E-08  178.86  5.60E-10 -3.50E-10  9.70E-10 -6.06E-10 -4.73E-08  9.37E-10
   24
   -.135   .078   .000 1.3205E-09  148.08 4.8719E-08  177.62  5.60E-10 -3.49E-10  9.71E-10 -6.05E-10 -4.87E-08  2.02E-09
   25
   -.135   .078  -.114 1.3205E-09  148.01 5.0186E-08  176.31  5.60E-10 -3.50E-10  9.70E-10 -6.06E-10 -5.01E-08  3.23E-09
   26
   -.054   .093   .171 3.2317E-08    -.74 2.5162E-09  148.24 -1.43E-08 -9.39E-10  2.91E-08 -1.02E-09  0.00E+00  0.00E+00
   27
   -.054   .093  -.171 3.4843E-08  175.92 2.5162E-09  -31.76  1.92E-08 -2.39E-09 -2.90E-08  1.48E-09  0.00E+00  0.00E+00
   28
   -.155   .000   .114 1.0834E-18  -32.05 4.7053E-08  179.03  3.77E-28 -2.36E-28 -9.18E-19  5.75E-19 -4.70E-08  7.98E-10
   29
   -.155   .000   .000 1.0834E-18  -31.98 4.8719E-08  177.62  3.77E-28 -2.35E-28 -9.19E-19  5.74E-19 -4.87E-08  2.02E-09
   30
   -.155   .000  -.114 1.0834E-18  -32.05 5.0413E-08  176.17  3.77E-28 -2.36E-28 -9.18E-19  5.75E-19 -5.03E-08  3.37E-09
   31
   -.135  -.078   .114 1.3205E-09  -31.99 4.7274E-08  178.86  5.60E-10 -3.50E-10 -9.70E-10  6.06E-10 -4.73E-08  9.37E-10
   32
   -.135  -.078   .000 1.3205E-09  -31.92 4.8719E-08  177.62  5.60E-10 -3.49E-10 -9.71E-10  6.05E-10 -4.87E-08  2.02E-09
   33
   -.135  -.078  -.114 1.3205E-09  -31.99 5.0186E-08  176.31  5.60E-10 -3.50E-10 -9.70E-10  6.06E-10 -5.01E-08  3.23E-09
   34
   -.107   .000   .171 3.1086E-08     .66 1.1918E-18  -31.92 -3.11E-08 -3.56E-10 -1.38E-17  4.84E-19  0.00E+00  0.00E+00
   35
   -.107   .000  -.171 3.6132E-08  174.84 1.1918E-18  148.08  3.60E-08 -3.25E-09  1.38E-17 -7.03E-19  0.00E+00  0.00E+00
   36
   -.078  -.135   .114 2.2874E-09  -31.81 4.7883E-08  178.43  1.68E-09 -1.04E-09 -9.72E-10  6.03E-10 -4.79E-08  1.31E-09
   37
   -.078  -.135   .000 2.2874E-09  -31.74 4.8719E-08  177.62  1.68E-09 -1.04E-09 -9.73E-10  6.02E-10 -4.87E-08  2.02E-09
   38
   -.078  -.135  -.114 2.2874E-09  -31.81 4.9564E-08  176.70  1.68E-09 -1.04E-09 -9.72E-10  6.03E-10 -4.95E-08  2.85E-09
   39
    .000  -.155   .114 2.6415E-09  -31.57 4.8722E-08  177.85  2.25E-09 -1.38E-09  1.23E-18 -7.59E-19 -4.87E-08  1.83E-09
   40
    .000  -.155   .000 2.6415E-09  -31.50 4.8719E-08  177.62  2.25E-09 -1.38E-09  1.24E-18 -7.57E-19 -4.87E-08  2.02E-09
   41
    .000  -.155  -.114 2.6415E-09  -31.57 4.8715E-08  177.25  2.25E-09 -1.38E-09  1.23E-18 -7.59E-19 -4.87E-08  2.34E-09
   42
   -.054  -.093   .171 3.2317E-08    -.74 2.5162E-09  -31.76 -1.43E-08 -9.39E-10 -2.91E-08  1.02E-09  0.00E+00  0.00E+00
   43
   -.054  -.093  -.171 3.4843E-08  175.92 2.5162E-09  148.24  1.92E-08 -2.39E-09  2.90E-08 -1.48E-09  0.00E+00  0.00E+00
   44
    .078  -.135   .114 2.2878E-09  -31.33 4.9570E-08  177.31  1.69E-09 -1.03E-09  9.77E-10 -5.95E-10 -4.95E-08  2.33E-09
   45
    .078  -.135   .000 2.2878E-09  -31.26 4.8719E-08  177.62  1.69E-09 -1.03E-09  9.78E-10 -5.94E-10 -4.87E-08  2.02E-09
   46
    .078  -.135  -.114 2.2878E-09  -31.33 4.7867E-08  177.80  1.69E-09 -1.03E-09  9.77E-10 -5.95E-10 -4.78E-08  1.84E-09
   47
