1



                                 *********************************************

                                    NUMERICAL ELECTROMAGNETICS CODE (NEC-2D)

                                 *********************************************




                                     - - - - COMMENTS - - - -


                          SQR_1.NEC                                                                  
                          3-tower pattern                                                            
                                                                                                     




                                 - - - STRUCTURE SPECIFICATION - - -

                                     COORDINATES MUST BE INPUT IN
                                     METERS OR BE SCALED TO METERS
                                     BEFORE STRUCTURE INPUT IS ENDED


  WIRE                                                                               NO. OF    FIRST  LAST     TAG
  NO.        X1         Y1         Z1          X2         Y2         Z2      RADIUS   SEG.     SEG.   SEG.     NO.
     1     .00000     .00000     .00000      .00000     .00000   49.96750     .14560     20        1    20     101
     2  105.99700  105.99700     .00000   105.99700  105.99700  124.91880     .14560     20       21    40     201
     3  105.99700 -105.99700     .00000   105.99700 -105.99700  124.91880     .14560     20       41    60     301

   GROUND PLANE SPECIFIED.

   WHERE WIRE ENDS TOUCH GROUND, CURRENT WILL BE INTERPOLATED TO IMAGE IN GROUND PLANE.


   TOTAL SEGMENTS USED=   60     NO. SEG. IN A SYMMETRIC CELL=   60     SYMMETRY FLAG=  0


         - MULTIPLE WIRE JUNCTIONS -
 JUNCTION    SEGMENTS  (- FOR END 1, + FOR END 2)
  NONE




                                 - - - - SEGMENTATION DATA - - - -

                                        COORDINATES IN METERS

                         I+ AND I- INDICATE THE SEGMENTS BEFORE AND AFTER I


  SEG.   COORDINATES OF SEG. CENTER     SEG.     ORIENTATION ANGLES    WIRE    CONNECTION DATA   TAG
  NO.       X         Y         Z       LENGTH     ALPHA     BETA      RADIUS    I-   I    I+    NO.
     1    .00000    .00000   1.24919   2.49838   90.00000    .00000    .14560     1    1    2    101
     2    .00000    .00000   3.74756   2.49838   90.00000    .00000    .14560     1    2    3    101
     3    .00000    .00000   6.24594   2.49838   90.00000    .00000    .14560     2    3    4    101
     4    .00000    .00000   8.74431   2.49838   90.00000    .00000    .14560     3    4    5    101
     5    .00000    .00000  11.24269   2.49837   90.00000    .00000    .14560     4    5    6    101
     6    .00000    .00000  13.74106   2.49837   90.00000    .00000    .14560     5    6    7    101
     7    .00000    .00000  16.23944   2.49837   90.00000    .00000    .14560     6    7    8    101
     8    .00000    .00000  18.73781   2.49837   90.00000    .00000    .14560     7    8    9    101
     9    .00000    .00000  21.23619   2.49837   90.00000    .00000    .14560     8    9   10    101
    10    .00000    .00000  23.73456   2.49837   90.00000    .00000    .14560     9   10   11    101
    11    .00000    .00000  26.23294   2.49837   90.00000    .00000    .14560    10   11   12    101
    12    .00000    .00000  28.73131   2.49837   90.00000    .00000    .14560    11   12   13    101
    13    .00000    .00000  31.22969   2.49837   90.00000    .00000    .14560    12   13   14    101
    14    .00000    .00000  33.72806   2.49838   90.00000    .00000    .14560    13   14   15    101
    15    .00000    .00000  36.22644   2.49838   90.00000    .00000    .14560    14   15   16    101
    16    .00000    .00000  38.72481   2.49838   90.00000    .00000    .14560    15   16   17    101
    17    .00000    .00000  41.22319   2.49838   90.00000    .00000    .14560    16   17   18    101
    18    .00000    .00000  43.72156   2.49838   90.00000    .00000    .14560    17   18   19    101
    19    .00000    .00000  46.21994   2.49838   90.00000    .00000    .14560    18   19   20    101
    20    .00000    .00000  48.71831   2.49837   90.00000    .00000    .14560    19   20    0    101
    21 105.99700 105.99700   3.12297   6.24594   90.00000    .00000    .14560    21   21   22    201
    22 105.99700 105.99700   9.36891   6.24594   90.00000    .00000    .14560    21   22   23    201
    23 105.99700 105.99700  15.61485   6.24594   90.00000    .00000    .14560    22   23   24    201
    24 105.99700 105.99700  21.86079   6.24594   90.00000    .00000    .14560    23   24   25    201
    25 105.99700 105.99700  28.10673   6.24594   90.00000    .00000    .14560    24   25   26    201
    26 105.99700 105.99700  34.35267   6.24594   90.00000    .00000    .14560    25   26   27    201
    27 105.99700 105.99700  40.59861   6.24594   90.00000    .00000    .14560    26   27   28    201
    28 105.99700 105.99700  46.84455   6.24594   90.00000    .00000    .14560    27   28   29    201
    29 105.99700 105.99700  53.09049   6.24594   90.00000    .00000    .14560    28   29   30    201
    30 105.99700 105.99700  59.33643   6.24594   90.00000    .00000    .14560    29   30   31    201
    31 105.99700 105.99700  65.58237   6.24594   90.00000    .00000    .14560    30   31   32    201
    32 105.99700 105.99700  71.82831   6.24594   90.00000    .00000    .14560    31   32   33    201
    33 105.99700 105.99700  78.07425   6.24594   90.00000    .00000    .14560    32   33   34    201
    34 105.99700 105.99700  84.32019   6.24594   90.00000    .00000    .14560    33   34   35    201
    35 105.99700 105.99700  90.56613   6.24594   90.00000    .00000    .14560    34   35   36    201
    36 105.99700 105.99700  96.81207   6.24594   90.00000    .00000    .14560    35   36   37    201
    37 105.99700 105.99700 103.05801   6.24594   90.00000    .00000    .14560    36   37   38    201
    38 105.99700 105.99700 109.30395   6.24594   90.00000    .00000    .14560    37   38   39    201
    39 105.99700 105.99700 115.54989   6.24594   90.00000    .00000    .14560    38   39   40    201
    40 105.99700 105.99700 121.79583   6.24594   90.00000    .00000    .14560    39   40    0    201
    41 105.99700-105.99700   3.12297   6.24594   90.00000    .00000    .14560    41   41   42    301
    42 105.99700-105.99700   9.36891   6.24594   90.00000    .00000    .14560    41   42   43    301
    43 105.99700-105.99700  15.61485   6.24594   90.00000    .00000    .14560    42   43   44    301
    44 105.99700-105.99700  21.86079   6.24594   90.00000    .00000    .14560    43   44   45    301
    45 105.99700-105.99700  28.10673   6.24594   90.00000    .00000    .14560    44   45   46    301
    46 105.99700-105.99700  34.35267   6.24594   90.00000    .00000    .14560    45   46   47    301
    47 105.99700-105.99700  40.59861   6.24594   90.00000    .00000    .14560    46   47   48    301
    48 105.99700-105.99700  46.84455   6.24594   90.00000    .00000    .14560    47   48   49    301
    49 105.99700-105.99700  53.09049   6.24594   90.00000    .00000    .14560    48   49   50    301
    50 105.99700-105.99700  59.33643   6.24594   90.00000    .00000    .14560    49   50   51    301
    51 105.99700-105.99700  65.58237   6.24594   90.00000    .00000    .14560    50   51   52    301
    52 105.99700-105.99700  71.82831   6.24594   90.00000    .00000    .14560    51   52   53    301
    53 105.99700-105.99700  78.07425   6.24594   90.00000    .00000    .14560    52   53   54    301
    54 105.99700-105.99700  84.32019   6.24594   90.00000    .00000    .14560    53   54   55    301
    55 105.99700-105.99700  90.56613   6.24594   90.00000    .00000    .14560    54   55   56    301
    56 105.99700-105.99700  96.81207   6.24594   90.00000    .00000    .14560    55   56   57    301
    57 105.99700-105.99700 103.05801   6.24594   90.00000    .00000    .14560    56   57   58    301
    58 105.99700-105.99700 109.30395   6.24594   90.00000    .00000    .14560    57   58   59    301
    59 105.99700-105.99700 115.54989   6.24594   90.00000    .00000    .14560    58   59   60    301
    60 105.99700-105.99700 121.79583   6.24594   90.00000    .00000    .14560    59   60    0    301






 ***** DATA CARD NO.  1   GN   1     0     0     0  0.00000E+00  0.00000E+00  0.00000E+00  0.00000E+00  0.00000E+00  0.00000E+00
 ***** DATA CARD NO.  2   FR   0     1     0     0  1.50000E+00  0.00000E+00  0.00000E+00  0.00000E+00  0.00000E+00  0.00000E+00
 ***** DATA CARD NO.  3   EX   0   101     1     0  6.16210E+02  4.36760E+02  0.00000E+00  0.00000E+00  0.00000E+00  0.00000E+00
 ***** DATA CARD NO.  4   XQ   0     0     0     0  0.00000E+00  0.00000E+00  0.00000E+00  0.00000E+00  0.00000E+00  0.00000E+00




                                 - - - - - - FREQUENCY - - - - - -

                                    FREQUENCY= 1.5000E+00 MHZ
                                    WAVELENGTH= 1.9987E+02 METERS




                    APPROXIMATE INTEGRATION EMPLOYED FOR SEGMENTS MORE THAN   1.000 WAVELENGTHS APART



                               - - - STRUCTURE IMPEDANCE LOADING - - -

                                   THIS STRUCTURE IS NOT LOADED



                                  - - - ANTENNA ENVIRONMENT - - -

                                          PERFECT GROUND



                                - - - MATRIX TIMING - - -

                        FILL=     .000 SEC.,  FACTOR=     .000 SEC.



                                          - - - ANTENNA INPUT PARAMETERS - - -

   TAG   SEG.    VOLTAGE (VOLTS)         CURRENT (AMPS)         IMPEDANCE (OHMS)        ADMITTANCE (MHOS)      POWER
   NO.   NO.    REAL        IMAG.       REAL        IMAG.       REAL        IMAG.       REAL        IMAG.     (WATTS)
   101     1 6.16210E+02 4.36760E+02 1.48249E+01 1.03304E+00 4.34081E+01 2.64365E+01 1.68043E-02-1.02342E-02 4.79322E+03



                             - - - CURRENTS AND LOCATION - - -

                                 DISTANCES IN WAVELENGTHS


  SEG.  TAG    COORD. OF SEG. CENTER     SEG.            - - - CURRENT (AMPS) - - -
  NO.   NO.     X        Y        Z      LENGTH     REAL        IMAG.       MAG.        PHASE
     1  101    .0000    .0000    .0063   .01250   1.4825E+01  1.0330E+00  1.4861E+01    3.986
     2  101    .0000    .0000    .0188   .01250   1.4888E+01  8.2048E-01  1.4910E+01    3.154
     3  101    .0000    .0000    .0313   .01250   1.4848E+01  6.2976E-01  1.4862E+01    2.429
     4  101    .0000    .0000    .0438   .01250   1.4701E+01  4.6863E-01  1.4709E+01    1.826
     5  101    .0000    .0000    .0563   .01250   1.4456E+01  3.2677E-01  1.4459E+01    1.295
     6  101    .0000    .0000    .0688   .01250   1.4115E+01  2.0129E-01  1.4117E+01     .817
     7  101    .0000    .0000    .0813   .01250   1.3683E+01  9.0870E-02  1.3684E+01     .380
     8  101    .0000    .0000    .0938   .01250   1.3163E+01 -5.1267E-03  1.3163E+01    -.022
     9  101    .0000    .0000    .1063   .01250   1.2556E+01 -8.7013E-02  1.2557E+01    -.397
    10  101    .0000    .0000    .1188   .01250   1.1868E+01 -1.5494E-01  1.1869E+01    -.748
    11  101    .0000    .0000    .1313   .01250   1.1101E+01 -2.0900E-01  1.1103E+01   -1.079
    12  101    .0000    .0000    .1438   .01250   1.0258E+01 -2.4922E-01  1.0262E+01   -1.392
    13  101    .0000    .0000    .1563   .01250   9.3449E+00 -2.7564E-01  9.3490E+00   -1.690
    14  101    .0000    .0000    .1688   .01250   8.3637E+00 -2.8828E-01  8.3686E+00   -1.974
    15  101    .0000    .0000    .1813   .01250   7.3179E+00 -2.8716E-01  7.3235E+00   -2.247
    16  101    .0000    .0000    .1938   .01250   6.2101E+00 -2.7226E-01  6.2160E+00   -2.510
    17  101    .0000    .0000    .2063   .01250   5.0409E+00 -2.4345E-01  5.0467E+00   -2.765
    18  101    .0000    .0000    .2188   .01250   3.8071E+00 -2.0035E-01  3.8123E+00   -3.012
    19  101    .0000    .0000    .2313   .01250   2.4959E+00 -1.4194E-01  2.4999E+00   -3.255
    20  101    .0000    .0000    .2438   .01250   1.0133E+00 -6.1766E-02  1.0152E+00   -3.488
    21  201    .5303    .5303    .0156   .03125  -3.8299E-01 -6.3678E-01  7.4308E-01 -121.024
    22  201    .5303    .5303    .0469   .03125  -3.6715E-01 -6.3310E-01  7.3186E-01 -120.110
    23  201    .5303    .5303    .0781   .03125  -3.3618E-01 -6.2577E-01  7.1035E-01 -118.246
    24  201    .5303    .5303    .1094   .03125  -2.9147E-01 -6.1478E-01  6.8038E-01 -115.366
    25  201    .5303    .5303    .1406   .03125  -2.3502E-01 -6.0019E-01  6.4456E-01 -111.384
    26  201    .5303    .5303    .1719   .03125  -1.6939E-01 -5.8203E-01  6.0618E-01 -106.226
    27  201    .5303    .5303    .2031   .03125  -9.7537E-02 -5.6037E-01  5.6879E-01  -99.874
    28  201    .5303    .5303    .2344   .03125  -2.2753E-02 -5.3529E-01  5.3577E-01  -92.434
    29  201    .5303    .5303    .2656   .03125   5.1514E-02 -5.0691E-01  5.0952E-01  -84.197
    30  201    .5303    .5303    .2969   .03125   1.2179E-01 -4.7535E-01  4.9071E-01  -75.630
    31  201    .5303    .5303    .3281   .03125   1.8470E-01 -4.4080E-01  4.7793E-01  -67.265
    32  201    .5303    .5303    .3594   .03125   2.3716E-01 -4.0344E-01  4.6798E-01  -59.551
    33  201    .5303    .5303    .3906   .03125   2.7644E-01 -3.6351E-01  4.5668E-01  -52.748
    34  201    .5303    .5303    .4219   .03125   3.0030E-01 -3.2127E-01  4.3977E-01  -46.933
    35  201    .5303    .5303    .4531   .03125   3.0707E-01 -2.7702E-01  4.1356E-01  -42.055
    36  201    .5303    .5303    .4844   .03125   2.9568E-01 -2.3105E-01  3.7525E-01  -38.005
    37  201    .5303    .5303    .5156   .03125   2.6568E-01 -1.8366E-01  3.2298E-01  -34.655
    38  201    .5303    .5303    .5469   .03125   2.1708E-01 -1.3505E-01  2.5566E-01  -31.887
    39  201    .5303    .5303    .5781   .03125   1.4999E-01 -8.5188E-02  1.7249E-01  -29.595
    40  201    .5303    .5303    .6094   .03125   6.0846E-02 -3.1980E-02  6.8738E-02  -27.726
    41  301    .5303   -.5303    .0156   .03125  -3.8299E-01 -6.3678E-01  7.4308E-01 -121.024
    42  301    .5303   -.5303    .0469   .03125  -3.6715E-01 -6.3310E-01  7.3186E-01 -120.110
    43  301    .5303   -.5303    .0781   .03125  -3.3618E-01 -6.2577E-01  7.1035E-01 -118.246
    44  301    .5303   -.5303    .1094   .03125  -2.9147E-01 -6.1478E-01  6.8038E-01 -115.366
    45  301    .5303   -.5303    .1406   .03125  -2.3502E-01 -6.0019E-01  6.4456E-01 -111.384
    46  301    .5303   -.5303    .1719   .03125  -1.6939E-01 -5.8203E-01  6.0618E-01 -106.226
    47  301    .5303   -.5303    .2031   .03125  -9.7537E-02 -5.6037E-01  5.6879E-01  -99.874
    48  301    .5303   -.5303    .2344   .03125  -2.2753E-02 -5.3529E-01  5.3577E-01  -92.434
    49  301    .5303   -.5303    .2656   .03125   5.1514E-02 -5.0691E-01  5.0952E-01  -84.197
    50  301    .5303   -.5303    .2969   .03125   1.2179E-01 -4.7535E-01  4.9071E-01  -75.630
    51  301    .5303   -.5303    .3281   .03125   1.8470E-01 -4.4080E-01  4.7793E-01  -67.265
    52  301    .5303   -.5303    .3594   .03125   2.3716E-01 -4.0344E-01  4.6798E-01  -59.551
    53  301    .5303   -.5303    .3906   .03125   2.7644E-01 -3.6351E-01  4.5668E-01  -52.748
    54  301    .5303   -.5303    .4219   .03125   3.0030E-01 -3.2127E-01  4.3977E-01  -46.933
    55  301    .5303   -.5303    .4531   .03125   3.0707E-01 -2.7702E-01  4.1356E-01  -42.055
    56  301    .5303   -.5303    .4844   .03125   2.9568E-01 -2.3105E-01  3.7525E-01  -38.005
    57  301    .5303   -.5303    .5156   .03125   2.6568E-01 -1.8366E-01  3.2298E-01  -34.655
    58  301    .5303   -.5303    .5469   .03125   2.1708E-01 -1.3505E-01  2.5566E-01  -31.887
    59  301    .5303   -.5303    .5781   .03125   1.4999E-01 -8.5188E-02  1.7249E-01  -29.595
    60  301    .5303   -.5303    .6094   .03125   6.0846E-02 -3.1980E-02  6.8738E-02  -27.726



                                        - - - POWER BUDGET - - -

                                           INPUT POWER   = 4.7932E+03 WATTS
                                           RADIATED POWER= 4.7932E+03 WATTS
                                           STRUCTURE LOSS= 0.0000E+00 WATTS
                                           NETWORK LOSS  = 0.0000E+00 WATTS
                                           EFFICIENCY    = 100.00 PERCENT






 ***** DATA CARD NO.  5   EX   0   201     1     0 -2.18400E+02  1.42290E+02  0.00000E+00  0.00000E+00  0.00000E+00  0.00000E+00
 ***** DATA CARD NO.  6   XQ   0     0     0     0  0.00000E+00  0.00000E+00  0.00000E+00  0.00000E+00  0.00000E+00  0.00000E+00



                                          - - - ANTENNA INPUT PARAMETERS - - -

   TAG   SEG.    VOLTAGE (VOLTS)         CURRENT (AMPS)         IMPEDANCE (OHMS)        ADMITTANCE (MHOS)      POWER
   NO.   NO.    REAL        IMAG.       REAL        IMAG.       REAL        IMAG.       REAL        IMAG.     (WATTS)
   201    21-2.18400E+02 1.42290E+02-7.04196E-01-6.11776E-01 7.67062E+01-2.68699E+02 9.82365E-04 3.44120E-03 3.33734E+01



                             - - - CURRENTS AND LOCATION - - -

                                 DISTANCES IN WAVELENGTHS


  SEG.  TAG    COORD. OF SEG. CENTER     SEG.            - - - CURRENT (AMPS) - - -
  NO.   NO.     X        Y        Z      LENGTH     REAL        IMAG.       MAG.        PHASE
     1  101    .0000    .0000    .0063   .01250   2.5286E-01 -4.1878E-02  2.5630E-01   -9.404
     2  101    .0000    .0000    .0188   .01250   2.5142E-01 -4.1639E-02  2.5485E-01   -9.404
     3  101    .0000    .0000    .0313   .01250   2.4856E-01 -4.1162E-02  2.5194E-01   -9.403
     4  101    .0000    .0000    .0438   .01250   2.4428E-01 -4.0450E-02  2.4761E-01   -9.402
     5  101    .0000    .0000    .0563   .01250   2.3861E-01 -3.9506E-02  2.4186E-01   -9.401
     6  101    .0000    .0000    .0688   .01250   2.3158E-01 -3.8336E-02  2.3473E-01   -9.399
     7  101    .0000    .0000    .0813   .01250   2.2323E-01 -3.6946E-02  2.2627E-01   -9.397
     8  101    .0000    .0000    .0938   .01250   2.1360E-01 -3.5343E-02  2.1650E-01   -9.395
     9  101    .0000    .0000    .1063   .01250   2.0274E-01 -3.3536E-02  2.0549E-01   -9.392
    10  101    .0000    .0000    .1188   .01250   1.9070E-01 -3.1535E-02  1.9329E-01   -9.389
    11  101    .0000    .0000    .1313   .01250   1.7755E-01 -2.9348E-02  1.7996E-01   -9.386
    12  101    .0000    .0000    .1438   .01250   1.6335E-01 -2.6988E-02  1.6556E-01   -9.381
    13  101    .0000    .0000    .1563   .01250   1.4816E-01 -2.4465E-02  1.5016E-01   -9.377
    14  101    .0000    .0000    .1688   .01250   1.3203E-01 -2.1790E-02  1.3382E-01   -9.371
    15  101    .0000    .0000    .1813   .01250   1.1504E-01 -1.8972E-02  1.1660E-01   -9.365
    16  101    .0000    .0000    .1938   .01250   9.7222E-02 -1.6021E-02  9.8534E-02   -9.358
    17  101    .0000    .0000    .2063   .01250   7.8593E-02 -1.2940E-02  7.9652E-02   -9.350
    18  101    .0000    .0000    .2188   .01250   5.9113E-02 -9.7230E-03  5.9908E-02   -9.340
    19  101    .0000    .0000    .2313   .01250   3.8594E-02 -6.3408E-03  3.9111E-02   -9.330
    20  101    .0000    .0000    .2438   .01250   1.5604E-02 -2.5605E-03  1.5813E-02   -9.318
    21  201    .5303    .5303    .0156   .03125  -7.0420E-01 -6.1178E-01  9.3283E-01 -139.017
    22  201    .5303    .5303    .0469   .03125  -5.8403E-01 -4.3925E-01  7.3077E-01 -143.053
    23  201    .5303    .5303    .0781   .03125  -4.4677E-01 -2.5194E-01  5.1291E-01 -150.581
    24  201    .5303    .5303    .1094   .03125  -3.0360E-01 -6.6058E-02  3.1070E-01 -167.725
    25  201    .5303    .5303    .1406   .03125  -1.5573E-01  1.1785E-01  1.9529E-01  142.881
    26  201    .5303    .5303    .1719   .03125  -7.1694E-03  2.9534E-01  2.9542E-01   91.391
    27  201    .5303    .5303    .2031   .03125   1.3732E-01  4.6111E-01  4.8112E-01   73.416
    28  201    .5303    .5303    .2344   .03125   2.7283E-01  6.0983E-01  6.6808E-01   65.897
